T14FC 536:706 SEGGER J-Link V5.12 Log File (0000ms, 1743ms total)
T14FC 536:706 DLL Compiled: Mar 30 2016 17:28:31 (0000ms, 1743ms total)
T14FC 536:706 Logging started @ 2016-06-16 17:13 (0000ms, 1743ms total)
T14FC 536:768 JLINK_ExecCommand("Device = ATSAM4C16C:0", ...)Device "ATSAM4C16C" selected.  returns 0x00 (0001ms, 1744ms total)
T14FC 536:813 JLINK_ExecCommand("ProjectFile = C:\Temp\sam4_studio_example\SAM4C_GETTING-STARTED2\SAM4C_GETTING-STARTED2\jlink.config", ...)  returns 0x00 (0001ms, 1745ms total)
T14FC 536:856 JLINK_ExecCommand("Device = ATSAM4C16C:0", ...)Device "ATSAM4C16C" selected.  returns 0x00 (0001ms, 1746ms total)
T14FC 536:857 JLINK_TIF_Select(JLINKARM_TIF_JTAG)  returns 0x00 (0004ms, 1750ms total)
T14FC 536:861 JLINK_GetIdData(...) >0x2F8 JTAG>TotalIRLen = ?, IRPrint = 0x..FFFFFC000000000000000001 >0xC8 JTAG> >0x210 JTAG>
  ***** Error: Failed to measure TotalIRLen. (0006ms, 1756ms total)
T14FC 536:867 JLINK_ConfigJTAG(IRPre = 0, DRPre = 0) (0000ms, 1756ms total)
T14FC 536:867 JLINK_SetSpeed(4000) (0000ms, 1756ms total)
T14FC 536:867 JLINK_ResetPullsRESET(OFF) (0000ms, 1756ms total)
T14FC 536:867 JLINK_Connect() >0x2F8 JTAG>TotalIRLen = 4, IRPrint = 0x01 >0x30 JTAG> >0x210 JTAG> >0x70 JTAG> >0x48 JTAG> >0x40 JTAG> >0x48 JTAG> >0x78 JTAG> >0x40 JTAG> >0x30 JTAG> >0x40 JTAG> >0x40 JTAG> >0x30 JTAG> >0x40 JTAG> >0x48 JTAG>Found Cortex-M4 r0p1, Little endian. -- CPU_ReadMem(4 bytes @ 0xE000EDF0) -- CPU_WriteMem(4 bytes @ 0xE000EDF0) -- CPU_ReadMem(4 bytes @ 0xE0002000)FPUnit: 6 code (BP) slots and 2 literal slots -- CPU_ReadMem(4 bytes @ 0xE000EDFC) -- CPU_WriteMem(4 bytes @ 0xE000EDFC)
 -- CPU_ReadMem(4 bytes @ 0xE0001000) -- CPU_WriteMem(4 bytes @ 0xE0001000) -- CPU_ReadMem(4 bytes @ 0xE000ED88) -- CPU_WriteMem(4 bytes @ 0xE000ED88) -- CPU_ReadMem(4 bytes @ 0xE000ED88) -- CPU_WriteMem(4 bytes @ 0xE000ED88)CoreSight components:ROMTbl 0 @ E00FF000 -- CPU_ReadMem(16 bytes @ 0xE00FF000) -- CPU_ReadMem(16 bytes @ 0xE000EFF0) -- CPU_ReadMem(16 bytes @ 0xE000EFE0)ROMTbl 0 [0]: FFF0F000, CID: B105E00D, PID: 000BB000 SCS -- CPU_ReadMem(16 bytes @ 0xE0001FF0)
 -- CPU_ReadMem(16 bytes @ 0xE0001FE0)ROMTbl 0 [1]: FFF02000, CID: B105E00D, PID: 003BB002 DWT -- CPU_ReadMem(16 bytes @ 0xE0002FF0) -- CPU_ReadMem(16 bytes @ 0xE0002FE0)ROMTbl 0 [2]: FFF03000, CID: B105E00D, PID: 002BB003 FPB -- CPU_ReadMem(16 bytes @ 0xE0000FF0) -- CPU_ReadMem(16 bytes @ 0xE0000FE0)ROMTbl 0 [3]: FFF01000, CID: B105E00D, PID: 003BB001 ITM -- CPU_ReadMem(16 bytes @ 0xE00FF010) -- CPU_ReadMem(16 bytes @ 0xE0040FF0) -- CPU_ReadMem(16 bytes @ 0xE0040FE0)
ROMTbl 0 [4]: FFF41000, CID: B105900D, PID: 000BB9A1 TPIU  returns 0x00 (0040ms, 1796ms total)
T14FC 536:907 JLINK_Halt()  returns 0x00 (0004ms, 1800ms total)
T14FC 536:911 JLINK_WriteMem(0x400E0A04, 0x0004 Bytes, ...) - Data: 0B 01 00 5A -- CPU_WriteMem(4 bytes @ 0x400E0A04)  returns 0x04 (0002ms, 1802ms total)
T14FC 536:913 JLINK_ReadMem (0x400E0A08, 0x0004 Bytes, ...) -- CPU_ReadMem(4 bytes @ 0x400E0A08) - Data: 01 00 00 00  returns 0x00 (0001ms, 1803ms total)
T14FC 536:914 JLINK_Reset() -- CPU_ReadMem(16 bytes @ 0x20000000) -- CPU_WriteMem(16 bytes @ 0x20000000) -- CPU_ReadMem(4 bytes @ 0xE000EDFC) -- CPU_WriteMem(4 bytes @ 0xE000EDFC) -- CPU_ReadMem(4 bytes @ 0xE0001000) -- CPU_WriteMem(4 bytes @ 0xE000EDFC) -- CPU_WriteMem(16 bytes @ 0x20000000) -- CPU_WriteMem(4 bytes @ 0xE0002000) -- CPU_ReadMem(4 bytes @ 0xE000EDFC) -- CPU_ReadMem(4 bytes @ 0xE0001000) (0031ms, 1834ms total)
T14FC 536:946 JLINK_JTAG_GetDeviceID(DeviceIndex = 0)  returns 0x4BA00477 (0001ms, 1835ms total)
T14FC 536:947 JLINK_ReadMemU32(0x400E0740, 0x0001 Items, ...) -- CPU_ReadMem(4 bytes @ 0x400E0740) - Data: E0 0C 4C A6  returns 0x01 (0001ms, 1836ms total)
T14FC 536:948 JLINK_ReadMemU32(0x400E0744, 0x0001 Items, ...) -- CPU_ReadMem(4 bytes @ 0x400E0744) - Data: 00 00 00 00  returns 0x01 (0001ms, 1837ms total)
T14FC 536:949 JLINK_WriteMem(0x400E0A04, 0x0004 Bytes, ...) - Data: 05 00 00 5A -- CPU_WriteMem(4 bytes @ 0x400E0A04)  returns 0x04 (0001ms, 1838ms total)
T14FC 536:950 JLINK_ReadMem (0x400E0A08, 0x0004 Bytes, ...) -- CPU_ReadMem(4 bytes @ 0x400E0A08) - Data: 00 00 00 00  returns 0x00 (0001ms, 1839ms total)
T14FC 536:977 JLINK_ReadMem (0x400E0A08, 0x0004 Bytes, ...) -- CPU_ReadMem(4 bytes @ 0x400E0A08) - Data: 00 00 00 00  returns 0x00 (0001ms, 1840ms total)
T1FF8 536:978 JLINK_IsHalted()  returns TRUE (0000ms, 1840ms total)
T1FF8 536:978 JLINK_GetMOEs(...) -- CPU_ReadMem(4 bytes @ 0xE000ED30) -- CPU_WriteMem(4 bytes @ 0xE000ED30)  returns 0x01 (0002ms, 1842ms total)
T1FF8 536:980 JLINK_ReadReg(R15 (PC))  returns 0x01008356 (0000ms, 1842ms total)
T1FF8 536:980 JLINK_Go() -- CPU_ReadMem(4 bytes @ 0xE0001000) -- CPU_WriteMem(4 bytes @ 0xE0001004) (0003ms, 1845ms total)
T14FC 536:983 JLINK_ReadMem (0x400E0A08, 0x0004 Bytes, ...) -- CPU is running -- CPU_ReadMem(4 bytes @ 0x400E0A08) - Data: 00 00 00 00  returns 0x00 (0001ms, 1846ms total)
T14FC 537:027 JLINK_ReadMem (0x400E0A08, 0x0004 Bytes, ...) -- CPU is running -- CPU_ReadMem(4 bytes @ 0x400E0A08) - Data: 00 00 00 00  returns 0x00 (0002ms, 1848ms total)
T14FC 537:093 JLINK_ReadMem (0x400E0A08, 0x0004 Bytes, ...) -- CPU is running -- CPU_ReadMem(4 bytes @ 0x400E0A08) - Data: 00 00 00 00  returns 0x00 (0002ms, 1850ms total)
T1FF8 537:183 JLINK_IsHalted()  returns FALSE (0001ms, 1851ms total)
T14FC 537:377 JLINK_ReadMem (0x400E0A08, 0x0004 Bytes, ...) -- CPU is running -- CPU_ReadMem(4 bytes @ 0x400E0A08) - Data: 00 00 00 00  returns 0x00 (0001ms, 1851ms total)
T1FF8 537:385 JLINK_IsHalted()  returns FALSE (0001ms, 1852ms total)
T1FF8 537:586 JLINK_IsHalted()  returns FALSE (0001ms, 1852ms total)
T1FF8 537:787 JLINK_IsHalted()  returns FALSE (0002ms, 1853ms total)
T1FF8 537:989 JLINK_IsHalted()  returns FALSE (0001ms, 1852ms total)
T1FF8 538:190 JLINK_IsHalted()  returns FALSE (0001ms, 1852ms total)
T1FF8 538:391 JLINK_IsHalted()  returns FALSE (0001ms, 1852ms total)
T14FC 538:427 JLINK_ReadMem (0x400E0A08, 0x0004 Bytes, ...) -- CPU is running -- CPU_ReadMem(4 bytes @ 0x400E0A08) - Data: 00 00 00 00  returns 0x00 (0002ms, 1853ms total)
T14FC 538:429 JLINK_ReadMem (0x400E0A08, 0x0004 Bytes, ...) -- CPU is running -- CPU_ReadMem(4 bytes @ 0x400E0A08) - Data: 00 00 00 00  returns 0x00 (0002ms, 1855ms total)
T14FC 538:432 JLINK_ReadMem (0x400E0A08, 0x0004 Bytes, ...) -- CPU is running -- CPU_ReadMem(4 bytes @ 0x400E0A08) - Data: 00 00 00 00  returns 0x00 (0001ms, 1856ms total)
T14FC 538:438 JLINK_ReadMem (0x400E0A08, 0x0004 Bytes, ...) -- CPU is running -- CPU_ReadMem(4 bytes @ 0x400E0A08) - Data: 00 00 00 00  returns 0x00 (0002ms, 1858ms total)
T14FC 538:477 JLINK_ReadMem (0x400E0A08, 0x0004 Bytes, ...) -- CPU is running -- CPU_ReadMem(4 bytes @ 0x400E0A08) - Data: 00 00 00 00  returns 0x00 (0001ms, 1859ms total)
T14FC 538:542 JLINK_ReadMem (0x400E0A08, 0x0004 Bytes, ...) -- CPU is running -- CPU_ReadMem(4 bytes @ 0x400E0A08) - Data: 00 00 00 00  returns 0x00 (0001ms, 1860ms total)
T1FF8 538:593 JLINK_IsHalted()  returns FALSE (0001ms, 1861ms total)
T1FF8 538:794 JLINK_IsHalted()  returns FALSE (0001ms, 1862ms total)
T14FC 538:827 JLINK_ReadMem (0x400E0A08, 0x0004 Bytes, ...) -- CPU is running -- CPU_ReadMem(4 bytes @ 0x400E0A08) - Data: 00 00 00 00  returns 0x00 (0001ms, 1862ms total)
T1FF8 539:027 JLINK_IsHalted()  returns FALSE (0001ms, 1863ms total)
T1FF8 539:228 JLINK_IsHalted()  returns FALSE (0001ms, 1863ms total)
T1FF8 539:429 JLINK_IsHalted()  returns FALSE (0002ms, 1864ms total)
T1FF8 539:631 JLINK_IsHalted()  returns FALSE (0001ms, 1863ms total)
T1FF8 539:832 JLINK_IsHalted()  returns FALSE (0001ms, 1863ms total)
T14FC 539:877 JLINK_ReadMem (0x400E0A08, 0x0004 Bytes, ...) -- CPU is running -- CPU_ReadMem(4 bytes @ 0x400E0A08) - Data: 00 00 00 00  returns 0x00 (0002ms, 1864ms total)
T14FC 539:879 JLINK_ReadMem (0x400E0A08, 0x0004 Bytes, ...) -- CPU is running -- CPU_ReadMem(4 bytes @ 0x400E0A08) - Data: 00 00 00 00  returns 0x00 (0002ms, 1866ms total)
T14FC 539:882 JLINK_ReadMem (0x400E0A08, 0x0004 Bytes, ...) -- CPU is running -- CPU_ReadMem(4 bytes @ 0x400E0A08) - Data: 00 00 00 00  returns 0x00 (0002ms, 1868ms total)
T14FC 539:888 JLINK_ReadMem (0x400E0A08, 0x0004 Bytes, ...) -- CPU is running -- CPU_ReadMem(4 bytes @ 0x400E0A08) - Data: 00 00 00 00  returns 0x00 (0002ms, 1870ms total)
T14FC 539:927 JLINK_ReadMem (0x400E0A08, 0x0004 Bytes, ...) -- CPU is running -- CPU_ReadMem(4 bytes @ 0x400E0A08) - Data: 00 00 00 00  returns 0x00 (0001ms, 1871ms total)
T14FC 539:992 JLINK_ReadMem (0x400E0A08, 0x0004 Bytes, ...) -- CPU is running -- CPU_ReadMem(4 bytes @ 0x400E0A08) - Data: 00 00 00 00  returns 0x00 (0002ms, 1873ms total)
T1FF8 540:033 JLINK_IsHalted()  returns FALSE (0001ms, 1874ms total)
T1FF8 540:234 JLINK_IsHalted()  returns FALSE (0001ms, 1874ms total)
T14FC 540:277 JLINK_ReadMem (0x400E0A08, 0x0004 Bytes, ...) -- CPU is running -- CPU_ReadMem(4 bytes @ 0x400E0A08) - Data: 00 00 00 00  returns 0x00 (0001ms, 1874ms total)
T1FF8 540:435 JLINK_IsHalted()  returns FALSE (0001ms, 1875ms total)
T1FF8 540:636 JLINK_IsHalted()  returns FALSE (0001ms, 1875ms total)
T1FF8 540:837 JLINK_IsHalted()  returns FALSE (0001ms, 1875ms total)
T1FF8 541:038 JLINK_IsHalted()  returns FALSE (0002ms, 1876ms total)
T1FF8 541:240 JLINK_IsHalted()  returns FALSE (0001ms, 1875ms total)
T14FC 541:328 JLINK_ReadMem (0x400E0A08, 0x0004 Bytes, ...) -- CPU is running -- CPU_ReadMem(4 bytes @ 0x400E0A08) - Data: 00 00 00 00  returns 0x00 (0001ms, 1875ms total)
T14FC 541:330 JLINK_ReadMem (0x400E0A08, 0x0004 Bytes, ...) -- CPU is running -- CPU_ReadMem(4 bytes @ 0x400E0A08) - Data: 00 00 00 00  returns 0x00 (0001ms, 1876ms total)
T14FC 541:332 JLINK_ReadMem (0x400E0A08, 0x0004 Bytes, ...) -- CPU is running -- CPU_ReadMem(4 bytes @ 0x400E0A08) - Data: 00 00 00 00  returns 0x00 (0001ms, 1877ms total)
T14FC 541:337 JLINK_ReadMem (0x400E0A08, 0x0004 Bytes, ...) -- CPU is running -- CPU_ReadMem(4 bytes @ 0x400E0A08) - Data: 00 00 00 00  returns 0x00 (0001ms, 1878ms total)
T14FC 541:377 JLINK_ReadMem (0x400E0A08, 0x0004 Bytes, ...) -- CPU is running -- CPU_ReadMem(4 bytes @ 0x400E0A08) - Data: 00 00 00 00  returns 0x00 (0001ms, 1879ms total)
T1FF8 541:441 JLINK_IsHalted()  returns FALSE (0001ms, 1880ms total)
T14FC 541:442 JLINK_ReadMem (0x400E0A08, 0x0004 Bytes, ...) -- CPU is running -- CPU_ReadMem(4 bytes @ 0x400E0A08) - Data: 00 00 00 00  returns 0x00 (0001ms, 1880ms total)
T1FF8 541:642 JLINK_IsHalted()  returns FALSE (0001ms, 1881ms total)
T14FC 541:727 JLINK_ReadMem (0x400E0A08, 0x0004 Bytes, ...) -- CPU is running -- CPU_ReadMem(4 bytes @ 0x400E0A08) - Data: 00 00 00 00  returns 0x00 (0002ms, 1882ms total)
T1FF8 541:843 JLINK_IsHalted()  returns TRUE (0007ms, 1889ms total)
T1FF8 541:850 JLINK_GetMOEs(...) -- CPU_ReadMem(4 bytes @ 0xE000ED30) -- CPU_WriteMem(4 bytes @ 0xE000ED30)  returns 0x01 (0003ms, 1885ms total)
T1FF8 541:853 JLINK_ReadReg(R15 (PC))  returns 0xFFFFFFFE (0000ms, 1885ms total)
T1FF8 541:853 JLINK_Go() -- CPU_ReadMem(4 bytes @ 0xE0001000) (0003ms, 1888ms total)
T1FF8 542:077 JLINK_IsHalted()  returns TRUE (0005ms, 1893ms total)
T1FF8 542:082 JLINK_GetMOEs(...) -- CPU_ReadMem(4 bytes @ 0xE000ED30) -- CPU_WriteMem(4 bytes @ 0xE000ED30)  returns 0x01 (0003ms, 1891ms total)
T1FF8 542:085 JLINK_ReadReg(R15 (PC))  returns 0xFFFFFFFE (0000ms, 1891ms total)
T1FF8 542:085 JLINK_Go() -- CPU_ReadMem(4 bytes @ 0xE0001000) (0003ms, 1894ms total)
T1FF8 542:288 JLINK_IsHalted()  returns TRUE (0006ms, 1900ms total)
T1FF8 542:294 JLINK_GetMOEs(...) -- CPU_ReadMem(4 bytes @ 0xE000ED30) -- CPU_WriteMem(4 bytes @ 0xE000ED30)  returns 0x01 (0002ms, 1896ms total)
T1FF8 542:296 JLINK_ReadReg(R15 (PC))  returns 0xFFFFFFFE (0000ms, 1896ms total)
T1FF8 542:296 JLINK_Go() -- CPU_ReadMem(4 bytes @ 0xE0001000) (0003ms, 1899ms total)
T1FF8 542:527 JLINK_IsHalted()  returns TRUE (0006ms, 1905ms total)
T1FF8 542:533 JLINK_GetMOEs(...) -- CPU_ReadMem(4 bytes @ 0xE000ED30) -- CPU_WriteMem(4 bytes @ 0xE000ED30)  returns 0x01 (0004ms, 1903ms total)
T1FF8 542:537 JLINK_ReadReg(R15 (PC))  returns 0xFFFFFFFE (0000ms, 1903ms total)
T1FF8 542:537 JLINK_Go() -- CPU_ReadMem(4 bytes @ 0xE0001000) (0002ms, 1905ms total)
T1FF8 542:739 JLINK_IsHalted()  returns TRUE (0006ms, 1911ms total)
T1FF8 542:745 JLINK_GetMOEs(...) -- CPU_ReadMem(4 bytes @ 0xE000ED30) -- CPU_WriteMem(4 bytes @ 0xE000ED30)  returns 0x01 (0003ms, 1908ms total)
T1FF8 542:748 JLINK_ReadReg(R15 (PC))  returns 0xFFFFFFFE (0000ms, 1908ms total)
T1FF8 542:748 JLINK_Go() -- CPU_ReadMem(4 bytes @ 0xE0001000) (0003ms, 1911ms total)
T14FC 542:777 JLINK_ReadMem (0x400E0A08, 0x0004 Bytes, ...) -- CPU is running -- CPU_ReadMem(4 bytes @ 0x400E0A08) - Data: 01 00 00 00  returns 0x00 (0002ms, 1913ms total)
T1FF8 542:976 JLINK_IsHalted()  returns TRUE (0006ms, 1919ms total)
T1FF8 542:982 JLINK_GetMOEs(...) -- CPU_ReadMem(4 bytes @ 0xE000ED30) -- CPU_WriteMem(4 bytes @ 0xE000ED30)  returns 0x01 (0002ms, 1915ms total)
T1FF8 542:984 JLINK_ReadReg(R15 (PC))  returns 0xFFFFFFFE (0001ms, 1916ms total)
T1FF8 542:985 JLINK_Go() -- CPU_ReadMem(4 bytes @ 0xE0001000) (0002ms, 1918ms total)
T14FC 542:989 JLINK_ResetPullsRESET(ON) (0000ms, 1918ms total)
T14FC 542:989 JLINK_ResetNoHalt() >0x2F8 JTAG>TotalIRLen = 4, IRPrint = 0x01 >0x30 JTAG> >0x210 JTAG> >0x70 JTAG> >0x48 JTAG> >0x40 JTAG> >0x48 JTAG> >0x78 JTAG> >0x40 JTAG> >0x30 JTAG> >0x40 JTAG> >0x40 JTAG> >0x30 JTAG> >0x40 JTAG> >0x48 JTAG>Found Cortex-M4 r0p1, Little endian. -- CPU_ReadMem(4 bytes @ 0xE000EDF0) -- CPU_ReadMem(4 bytes @ 0xE0002000)FPUnit: 6 code (BP) slots and 2 literal slots -- CPU_ReadMem(4 bytes @ 0xE000EDFC) -- CPU_ReadMem(4 bytes @ 0xE0001000)
 -- CPU_WriteMem(4 bytes @ 0xE0001000) -- CPU_ReadMem(4 bytes @ 0xE000ED88) -- CPU_WriteMem(4 bytes @ 0xE000ED88) -- CPU_ReadMem(4 bytes @ 0xE000ED88) -- CPU_WriteMem(4 bytes @ 0xE000ED88)CoreSight components:ROMTbl 0 @ E00FF000 -- CPU_ReadMem(16 bytes @ 0xE00FF000) -- CPU_ReadMem(16 bytes @ 0xE000EFF0) -- CPU_ReadMem(16 bytes @ 0xE000EFE0)ROMTbl 0 [0]: FFF0F000, CID: B105E00D, PID: 000BB000 SCS -- CPU_ReadMem(16 bytes @ 0xE0001FF0) -- CPU_ReadMem(16 bytes @ 0xE0001FE0)
ROMTbl 0 [1]: FFF02000, CID: B105E00D, PID: 003BB002 DWT -- CPU_ReadMem(16 bytes @ 0xE0002FF0) -- CPU_ReadMem(16 bytes @ 0xE0002FE0)ROMTbl 0 [2]: FFF03000, CID: B105E00D, PID: 002BB003 FPB -- CPU_ReadMem(16 bytes @ 0xE0000FF0) -- CPU_ReadMem(16 bytes @ 0xE0000FE0)ROMTbl 0 [3]: FFF01000, CID: B105E00D, PID: 003BB001 ITM -- CPU_ReadMem(16 bytes @ 0xE00FF010) -- CPU_ReadMem(16 bytes @ 0xE0040FF0) -- CPU_ReadMem(16 bytes @ 0xE0040FE0)ROMTbl 0 [4]: FFF41000, CID: B105900D, PID: 000BB9A1 TPIU
                JLINK_Reset() -- CPU_ReadMem(16 bytes @ 0x20000000) -- CPU_WriteMem(16 bytes @ 0x20000000) -- CPU_ReadMem(4 bytes @ 0xE000EDFC) -- CPU_WriteMem(4 bytes @ 0xE000EDFC) -- CPU_ReadMem(4 bytes @ 0xE0001000) -- CPU_WriteMem(4 bytes @ 0xE000EDFC) -- CPU_WriteMem(16 bytes @ 0x20000000) -- CPU_WriteMem(4 bytes @ 0xE0002000) -- CPU_ReadMem(4 bytes @ 0xE000EDFC) -- CPU_ReadMem(4 bytes @ 0xE0001000) (0035ms, 0035ms total)
                JLINK_Go() -- CPU_ReadMem(4 bytes @ 0xE0001000) -- CPU_WriteMem(4 bytes @ 0xE0001004) (0007ms, 0042ms total)
               (0083ms, 2001ms total)
T14FC 543:073 JLINK_ExecCommand("ProjectFile = C:\Temp\sam4_studio_example\SAM4C_GETTING-STARTED2\SAM4C_GETTING-STARTED2\jlink.config", ...)  returns 0x00 (0000ms, 2001ms total)
T14FC 543:133 JLINK_ExecCommand("Device = ATSAM4C16C:0", ...)Device "ATSAM4C16C" selected.  returns 0x00 (0002ms, 2003ms total)
T14FC 543:135 JLINK_TIF_Select(JLINKARM_TIF_JTAG)  returns 0x00 (0000ms, 2003ms total)
T14FC 543:135 JLINK_GetIdData(...) ScanLen=4 NumDevices=1 aId[0]=0x4BA00477 aIrRead[0]=0 aScanLen[0]=0 aScanRead[0]=0 (0000ms, 2003ms total)
T14FC 543:135 JLINK_ConfigJTAG(IRPre = 0, DRPre = 0) (0000ms, 2003ms total)
T14FC 543:135 JLINK_SetSpeed(4000) (0001ms, 2004ms total)
T14FC 543:136 JLINK_ResetPullsRESET(OFF) (0000ms, 2004ms total)
T14FC 543:136 JLINK_Connect() >0x2F8 JTAG>TotalIRLen = 4, IRPrint = 0x01 >0x30 JTAG> >0x210 JTAG> >0x70 JTAG> >0x48 JTAG> >0x40 JTAG> >0x48 JTAG> >0x78 JTAG> >0x40 JTAG> >0x30 JTAG> >0x40 JTAG> >0x40 JTAG> >0x30 JTAG> >0x40 JTAG> >0x48 JTAG>Found Cortex-M4 r0p1, Little endian. -- CPU_ReadMem(4 bytes @ 0xE000EDF0) -- CPU_ReadMem(4 bytes @ 0xE0002000)FPUnit: 6 code (BP) slots and 2 literal slots -- CPU_ReadMem(4 bytes @ 0xE000EDFC) -- CPU_ReadMem(4 bytes @ 0xE0001000) -- CPU_WriteMem(4 bytes @ 0xE0001000)
 -- CPU_ReadMem(4 bytes @ 0xE000ED88) -- CPU_WriteMem(4 bytes @ 0xE000ED88) -- CPU_ReadMem(4 bytes @ 0xE000ED88) -- CPU_WriteMem(4 bytes @ 0xE000ED88)CoreSight components:ROMTbl 0 @ E00FF000 -- CPU_ReadMem(16 bytes @ 0xE00FF000) -- CPU_ReadMem(16 bytes @ 0xE000EFF0) -- CPU_ReadMem(16 bytes @ 0xE000EFE0)ROMTbl 0 [0]: FFF0F000, CID: B105E00D, PID: 000BB000 SCS -- CPU_ReadMem(16 bytes @ 0xE0001FF0) -- CPU_ReadMem(16 bytes @ 0xE0001FE0)ROMTbl 0 [1]: FFF02000, CID: B105E00D, PID: 003BB002 DWT
 -- CPU_ReadMem(16 bytes @ 0xE0002FF0) -- CPU_ReadMem(16 bytes @ 0xE0002FE0)ROMTbl 0 [2]: FFF03000, CID: B105E00D, PID: 002BB003 FPB -- CPU_ReadMem(16 bytes @ 0xE0000FF0) -- CPU_ReadMem(16 bytes @ 0xE0000FE0)ROMTbl 0 [3]: FFF01000, CID: B105E00D, PID: 003BB001 ITM -- CPU_ReadMem(16 bytes @ 0xE00FF010) -- CPU_ReadMem(16 bytes @ 0xE0040FF0) -- CPU_ReadMem(16 bytes @ 0xE0040FE0)ROMTbl 0 [4]: FFF41000, CID: B105900D, PID: 000BB9A1 TPIU  returns 0x00 (0042ms, 2046ms total)
T14FC 543:178 JLINK_Halt()  returns 0x00 (0004ms, 2050ms total)
T14FC 543:182 JLINK_WriteMem(0x400E0A04, 0x0004 Bytes, ...) - Data: 0B 01 00 5A -- CPU_WriteMem(4 bytes @ 0x400E0A04)  returns 0x04 (0002ms, 2052ms total)
T14FC 543:184 JLINK_ReadMem (0x400E0A08, 0x0004 Bytes, ...) -- CPU_ReadMem(4 bytes @ 0x400E0A08) - Data: 01 00 00 00  returns 0x00 (0001ms, 2053ms total)
T14FC 543:185 JLINK_Reset() -- CPU_ReadMem(16 bytes @ 0x20000000) -- CPU_WriteMem(16 bytes @ 0x20000000) -- CPU_ReadMem(4 bytes @ 0xE000EDFC) -- CPU_WriteMem(4 bytes @ 0xE000EDFC) -- CPU_ReadMem(4 bytes @ 0xE0001000) -- CPU_WriteMem(4 bytes @ 0xE000EDFC) -- CPU_WriteMem(16 bytes @ 0x20000000) -- CPU_WriteMem(4 bytes @ 0xE0002000) -- CPU_ReadMem(4 bytes @ 0xE000EDFC) -- CPU_ReadMem(4 bytes @ 0xE0001000) (0030ms, 2083ms total)
T14FC 543:217 JLINK_JTAG_GetDeviceID(DeviceIndex = 0)  returns 0x4BA00477 (0000ms, 2083ms total)
T14FC 543:217 JLINK_ReadMemU32(0x400E0740, 0x0001 Items, ...) -- CPU_ReadMem(4 bytes @ 0x400E0740) - Data: E0 0C 4C A6  returns 0x01 (0004ms, 2087ms total)
T14FC 543:221 JLINK_ReadMemU32(0x400E0744, 0x0001 Items, ...) -- CPU_ReadMem(4 bytes @ 0x400E0744) - Data: 00 00 00 00  returns 0x01 (0001ms, 2088ms total)
T1FB8 543:226 JLINK_IsHalted()  returns TRUE (0000ms, 2088ms total)
T1FB8 543:226 JLINK_GetMOEs(...) -- CPU_ReadMem(4 bytes @ 0xE000ED30) -- CPU_WriteMem(4 bytes @ 0xE000ED30)  returns 0x01 (0019ms, 2107ms total)
T14FC 543:245 JLINK_BeginDownload(Flags = 0x00) (0000ms, 2107ms total)
T1FB8 543:245 JLINK_ReadReg(R15 (PC))  returns 0xFFFFFFFE (0000ms, 2107ms total)
T14FC 543:245 JLINK_WriteMem(0x01000000, 0x3FDC Bytes, ...) - Data: 48 39 00 20 A9 07 00 01 A5 07 00 01 A5 07 00 01 ...  returns 0x3FDC (0000ms, 2107ms total)
T1FB8 543:246 JLINK_ReadMemU32(0xFFFFFFFF, 0x0001 Items, ...) -- -------------------------------------- -- Start of determining dirty areas in flash cache -- End of determining dirty areas -- Start of preparing flash programming -- Calculating RAM usage -- RAM usage = 2860 Bytes -- Preserving CPU registers -- Preparing memory -- Determining CPU clock frequency -- CPU clock frequency: 3810 kHz -- CPU frequency = 3810 kHz -- Preparing target -- Downloading RAMCode -- Checking target RAM
 -- Preparing RAMCode -- End of preparing flash programming -- CPU is running at 90000 kHz. -- Start of comparing flash -- CRC check was estimated as fastest method -- Comparing range 0x1000000 - 0x1003FFF (4 Sectors, 16 KB), using multi-block CRC calculation -- CRC does not match for sectors 0-3 -- End of comparing flash -- Start of erasing sectors -- End of erasing sectors -- Start of flash programming -- Programming range 0x01000000 - 0x01003FFF (004 Sectors, 16 KB) -- End of flash programming
 -- 0x1000000 - 0x1003FFF (004 Sectors, 16 KB) -- Start of verifying flash -- Checksum calculation was estimated as fastest method -- End of verifying flash -- Start of restoring -- Restore RAMCode -- Restore content of target memory -- Restore target -- Restore memory -- Restoring CPU registers -- End of restoring -- Flash programming performed for 1 range (16384 bytes) -- Total time needed: 0.628s (Prepare: 0.257s, Compare: 0.017s, Erase: 0.000s, Program: 0.284s, Verify: 0.008s, Restore: 0.059s)
Mis-aligned memory read: Address: 0xFFFFFFFF, NumBytes: 4, Alignment: 4 (Word-aligned)
  ***** Mis-aligned memory read: Address: 0xFFFFFFFF, NumBytes: 4, Alignment: 4 (Word-aligned) -- CPU_ReadMem(128 bytes @ 0xFFFFFFC0) -- CPU_ReadMem(4 bytes @ 0xFFFFFFFF)  returns 0xFFFFFFFD (0643ms, 2750ms total)
T14FC 543:889 JLINK_WriteMem(0x01003FDC, 0x0008 Bytes, ...) - Data: 48 F9 FF 7F 01 00 00 00Debugger writes to flash (8 bytes @ address 0x01003FDC) after flash download is completed.
Write to flash is performed. Further writes to flash memory will not cause a similar message box. -- CPU_WriteMem(8 bytes @ 0x01003FDC)  returns 0x08 (0002ms, 2752ms total)
T14FC 543:892 JLINK_WriteMem(0x01003FE4, 0x001C Bytes, ...) - Data: 01 01 00 00 00 00 00 00 00 00 00 00 F4 02 00 20 ... -- CPU_WriteMem(28 bytes @ 0x01003FE4)  returns 0x1C (0001ms, 2753ms total)
T14FC 543:894 JLINK_WriteMem(0x01004000, 0x0850 Bytes, ...) - Data: 00 00 00 00 00 00 00 00 00 00 00 00 00 00 00 00 ... -- CPU_WriteMem(2128 bytes @ 0x01004000)  returns 0x850 (0020ms, 2773ms total)
T14FC 543:926 JLINK_EndDownload()  returns 0x00 (0000ms, 2773ms total)
T1FB8 544:089 JLINK_IsHalted()  returns TRUE (0001ms, 2774ms total)
T1CA8 544:186 JLINK_Halt()  returns 0x00 (0000ms, 2773ms total)
T1CA8 544:198 JLINK_ReadReg(R15 (PC))  returns 0xFFFFFFFE (0000ms, 2773ms total)
T1CA8 544:198 JLINK_ReadReg(R13 (SP))  returns 0xFFFFFFFC (0000ms, 2773ms total)
T1CA8 544:284 JLINK_ReadReg(R0)  returns 0x00000000 (0000ms, 2773ms total)
T1CA8 544:284 JLINK_ReadReg(R1)  returns 0x00000000 (0000ms, 2773ms total)
T1CA8 544:284 JLINK_ReadReg(R2)  returns 0x00000000 (0000ms, 2773ms total)
T1CA8 544:284 JLINK_ReadReg(R3)  returns 0x00000000 (0000ms, 2773ms total)
T1CA8 544:284 JLINK_ReadReg(R4)  returns 0x00000000 (0000ms, 2773ms total)
T1CA8 544:284 JLINK_ReadReg(R5)  returns 0x00000000 (0000ms, 2773ms total)
T1CA8 544:284 JLINK_ReadReg(R6)  returns 0x00000000 (0000ms, 2773ms total)
T1CA8 544:284 JLINK_ReadReg(R7)  returns 0x00000000 (0000ms, 2773ms total)
T1CA8 544:284 JLINK_ReadReg(R8)  returns 0x00000000 (0000ms, 2773ms total)
T1CA8 544:284 JLINK_ReadReg(R9)  returns 0x00000000 (0000ms, 2773ms total)
T1CA8 544:284 JLINK_ReadReg(R10)  returns 0x00000000 (0000ms, 2773ms total)
T1CA8 544:284 JLINK_ReadReg(R11)  returns 0x00000000 (0000ms, 2773ms total)
T1CA8 544:284 JLINK_ReadReg(R12)  returns 0x00000000 (0000ms, 2773ms total)
T1CA8 544:284 JLINK_ReadReg(R13 (SP))  returns 0xFFFFFFFC (0000ms, 2773ms total)
T1CA8 544:284 JLINK_ReadReg(R14)  returns 0xFFFFFFFF (0000ms, 2773ms total)
T1CA8 544:284 JLINK_ReadReg(R15 (PC))  returns 0xFFFFFFFE (0000ms, 2773ms total)
T1CA8 544:284 JLINK_ReadReg(XPSR)  returns 0x01000000 (0000ms, 2773ms total)
T1CA8 544:284 JLINK_ReadReg(MSP)  returns 0xFFFFFFFC (0000ms, 2773ms total)
T1CA8 544:284 JLINK_ReadReg(PSP)  returns 0x00000000 (0000ms, 2773ms total)
T1CA8 544:284 JLINK_ReadReg(PRIMASK)  returns 0x00000000 (0000ms, 2773ms total)
T1CA8 544:284 JLINK_ReadReg(BASEPRI)  returns 0x00000000 (0000ms, 2773ms total)
T1CA8 544:284 JLINK_ReadReg(FAULTMASK)  returns 0x00000000 (0000ms, 2773ms total)
T1CA8 544:284 JLINK_ReadReg(CONTROL)  returns 0x00000000 (0000ms, 2773ms total)
T1FB8 544:290 JLINK_IsHalted()  returns TRUE (0000ms, 2773ms total)
T1CA8 544:325 JLINK_Reset() -- CPU_ReadMem(16 bytes @ 0x20000000) -- CPU_WriteMem(16 bytes @ 0x20000000) -- CPU_ReadMem(4 bytes @ 0xE000EDFC) -- CPU_WriteMem(4 bytes @ 0xE000EDFC) -- CPU_ReadMem(4 bytes @ 0xE0001000) -- CPU_WriteMem(4 bytes @ 0xE000EDFC) -- CPU_WriteMem(16 bytes @ 0x20000000) -- CPU_WriteMem(4 bytes @ 0xE0002000) -- CPU_ReadMem(4 bytes @ 0xE000EDFC) -- CPU_ReadMem(4 bytes @ 0xE0001000) (0031ms, 2804ms total)
T1FB8 544:356 JLINK_IsHalted()  returns TRUE (0000ms, 2804ms total)
T1FB8 544:356 JLINK_GetMOEs(...) -- CPU_ReadMem(4 bytes @ 0xE000ED30) -- CPU_WriteMem(4 bytes @ 0xE000ED30)  returns 0x01 (0002ms, 2806ms total)
T1FB8 544:358 JLINK_ReadReg(R15 (PC))  returns 0x010007A8 (0000ms, 2806ms total)
T1FB8 544:358 JLINK_ReadMemU32(0x010007A9, 0x0001 Items, ...)Mis-aligned memory read: Address: 0x010007A9, NumBytes: 4, Alignment: 4 (Word-aligned)
  ***** Mis-aligned memory read: Address: 0x010007A9, NumBytes: 4, Alignment: 4 (Word-aligned) -- Read from flash cache (4 bytes @ 0x010007A9) - Data: B5 20 4B 20  returns 0x01 (0000ms, 2806ms total)
T1CA8 544:366 JLINK_ReadReg(R15 (PC))  returns 0x010007A8 (0000ms, 2806ms total)
T1CA8 544:366 JLINK_ReadReg(R13 (SP))  returns 0x20003948 (0000ms, 2806ms total)
T1CA8 544:382 JLINK_ReadMemHW(0x010007A8, 0x0004 Bytes, ...) -- CPU_ReadMem(4 bytes @ 0x010007A8) - Data: 08 B5 20 4B  returns 0x00 (0002ms, 2808ms total)
T1CA8 544:438 JLINK_ReadMemHW(0x01000BA8, 0x0001 Bytes, ...) -- CPU_ReadMem(1 bytes @ 0x01000BA8) - Data: 2D  returns 0x00 (0002ms, 2810ms total)
T1CA8 544:491 JLINK_ReadReg(R15 (PC))  returns 0x010007A8 (0000ms, 2810ms total)
T1CA8 544:491 JLINK_GetNumBPUnits(Type = 0xFFFFFF02)  returns 0x06 (0000ms, 2810ms total)
T1CA8 544:491 JLINK_SetBPEx(Addr = 0x01000BA8, Type = 0xFFFFFF02)  returns 0x00000001 (0000ms, 2810ms total)
T1CA8 544:491 JLINK_GetBPInfo(BPHandle = 1)  returns 0x00 (0000ms, 2810ms total)
T1CA8 544:491 JLINK_Go() -- CPU_ReadMem(4 bytes @ 0xE0001000) -- CPU_WriteMem(4 bytes @ 0xE0002008) -- CPU_WriteMem(4 bytes @ 0xE000200C) -- CPU_WriteMem(4 bytes @ 0xE0002010) -- CPU_WriteMem(4 bytes @ 0xE0002014) -- CPU_WriteMem(4 bytes @ 0xE0002018) -- CPU_WriteMem(4 bytes @ 0xE000201C) -- CPU_WriteMem(4 bytes @ 0xE0001004) (0006ms, 2816ms total)
T1FB8 544:497 JLINK_IsHalted()  returns FALSE (0001ms, 2817ms total)
T1FB8 544:526 JLINK_IsHalted()  returns TRUE (0004ms, 2820ms total)
T1FB8 544:530 JLINK_GetMOEs(...) -- CPU_ReadMem(4 bytes @ 0xE000ED30) -- CPU_WriteMem(4 bytes @ 0xE000ED30)  returns 0x01 (0002ms, 2818ms total)
T1FB8 544:532 JLINK_ReadReg(R15 (PC))  returns 0x01000BA8 (0000ms, 2818ms total)
T1FB8 544:532 JLINK_WriteMem(0xE000EDFC, 0x0004 Bytes, ...) - Data: 00 00 00 01 -- CPU_WriteMem(4 bytes @ 0xE000EDFC)  returns 0x04 (0001ms, 2819ms total)
T1FB8 544:533 JLINK_ReadMem (0xE0001000, 0x0004 Bytes, ...) -- CPU_ReadMem(4 bytes @ 0xE0001000) - Data: 01 00 00 40  returns 0x00 (0001ms, 2820ms total)
T1FB8 544:534 JLINK_WriteMem(0xE0001000, 0x0004 Bytes, ...) - Data: 01 00 00 40  returns 0x04 (0000ms, 2820ms total)
T1FB8 544:535 JLINK_WriteMem(0xE0001028, 0x0004 Bytes, ...) - Data: 00 01 00 00  returns 0x04 (0000ms, 2820ms total)
T1FB8 544:535 JLINK_ReadMem (0xE0001028, 0x0004 Bytes, ...) -- CPU_WriteMem(4 bytes @ 0xE0001028) -- CPU_ReadMem(4 bytes @ 0xE0001028) - Data: 00 00 00 00  returns 0x00 (0002ms, 2822ms total)
T1FB8 544:537 JLINK_WriteMem(0xE0001024, 0x0004 Bytes, ...) - Data: 1F 00 00 00  returns 0x04 (0000ms, 2822ms total)
T1FB8 544:537 JLINK_ReadMem (0xE0001024, 0x0004 Bytes, ...) -- CPU_WriteMem(4 bytes @ 0xE0001024) -- CPU_ReadMem(4 bytes @ 0xE0001024) - Data: 0F 00 00 00  returns 0x00 (0002ms, 2824ms total)
T1FB8 544:539 JLINK_WriteMem(0xE0001038, 0x0004 Bytes, ...) - Data: 00 01 00 00  returns 0x04 (0000ms, 2824ms total)
T1FB8 544:539 JLINK_ReadMem (0xE0001038, 0x0004 Bytes, ...) -- CPU_WriteMem(4 bytes @ 0xE0001038) -- CPU_ReadMem(4 bytes @ 0xE0001038) - Data: 00 03 00 00  returns 0x00 (0002ms, 2826ms total)
T1FB8 544:541 JLINK_WriteMem(0xE0001034, 0x0004 Bytes, ...) - Data: 1F 00 00 00  returns 0x04 (0000ms, 2826ms total)
T1FB8 544:541 JLINK_ReadMem (0xE0001034, 0x0004 Bytes, ...) -- CPU_WriteMem(4 bytes @ 0xE0001034) -- CPU_ReadMem(4 bytes @ 0xE0001034) - Data: 0F 00 00 00  returns 0x00 (0002ms, 2828ms total)
T1FB8 544:543 JLINK_WriteMem(0xE0001048, 0x0004 Bytes, ...) - Data: 00 01 00 00  returns 0x04 (0000ms, 2828ms total)
T1FB8 544:543 JLINK_ReadMem (0xE0001048, 0x0004 Bytes, ...) -- CPU_WriteMem(4 bytes @ 0xE0001048) -- CPU_ReadMem(4 bytes @ 0xE0001048) - Data: 00 00 00 00  returns 0x00 (0002ms, 2830ms total)
T1FB8 544:545 JLINK_WriteMem(0xE0001044, 0x0004 Bytes, ...) - Data: 1F 00 00 00  returns 0x04 (0000ms, 2830ms total)
T1FB8 544:545 JLINK_ReadMem (0xE0001044, 0x0004 Bytes, ...) -- CPU_WriteMem(4 bytes @ 0xE0001044) -- CPU_ReadMem(4 bytes @ 0xE0001044) - Data: 0F 00 00 00  returns 0x00 (0002ms, 2832ms total)
T1FB8 544:547 JLINK_WriteMem(0xE0001058, 0x0004 Bytes, ...) - Data: 00 01 00 00  returns 0x04 (0000ms, 2832ms total)
T1FB8 544:547 JLINK_ReadMem (0xE0001058, 0x0004 Bytes, ...) -- CPU_WriteMem(4 bytes @ 0xE0001058) -- CPU_ReadMem(4 bytes @ 0xE0001058) - Data: 00 00 00 00  returns 0x00 (0002ms, 2834ms total)
T1FB8 544:549 JLINK_WriteMem(0xE0001054, 0x0004 Bytes, ...) - Data: 1F 00 00 00  returns 0x04 (0000ms, 2834ms total)
T1FB8 544:549 JLINK_ReadMem (0xE0001054, 0x0004 Bytes, ...) -- CPU_WriteMem(4 bytes @ 0xE0001054) -- CPU_ReadMem(4 bytes @ 0xE0001054) - Data: 0F 00 00 00  returns 0x00 (0002ms, 2836ms total)
T1FB8 544:551 JLINK_WriteMem(0xE0001020, 0x0004 Bytes, ...) - Data: 00 00 00 00  returns 0x04 (0000ms, 2836ms total)
T1FB8 544:551 JLINK_WriteMem(0xE0001024, 0x0004 Bytes, ...) - Data: 00 00 00 00  returns 0x04 (0000ms, 2836ms total)
T1FB8 544:551 JLINK_WriteMem(0xE0001028, 0x0004 Bytes, ...) - Data: 00 00 00 00  returns 0x04 (0001ms, 2837ms total)
T1FB8 544:552 JLINK_WriteMem(0xE0001030, 0x0004 Bytes, ...) - Data: 00 00 00 00  returns 0x04 (0000ms, 2837ms total)
T1FB8 544:552 JLINK_WriteMem(0xE0001034, 0x0004 Bytes, ...) - Data: 00 00 00 00  returns 0x04 (0000ms, 2837ms total)
T1FB8 544:552 JLINK_WriteMem(0xE0001038, 0x0004 Bytes, ...) - Data: 00 00 00 00  returns 0x04 (0000ms, 2837ms total)
T1FB8 544:552 JLINK_WriteMem(0xE0001040, 0x0004 Bytes, ...) - Data: 00 00 00 00  returns 0x04 (0000ms, 2837ms total)
T1FB8 544:552 JLINK_WriteMem(0xE0001044, 0x0004 Bytes, ...) - Data: 00 00 00 00  returns 0x04 (0000ms, 2837ms total)
T1FB8 544:552 JLINK_WriteMem(0xE0001048, 0x0004 Bytes, ...) - Data: 00 00 00 00  returns 0x04 (0000ms, 2837ms total)
T1FB8 544:552 JLINK_WriteMem(0xE0001050, 0x0004 Bytes, ...) - Data: 00 00 00 00  returns 0x04 (0000ms, 2837ms total)
T1FB8 544:552 JLINK_WriteMem(0xE0001054, 0x0004 Bytes, ...) - Data: 00 00 00 00  returns 0x04 (0000ms, 2837ms total)
T1FB8 544:552 JLINK_WriteMem(0xE0001058, 0x0004 Bytes, ...) - Data: 00 00 00 00  returns 0x04 (0000ms, 2837ms total)
T1FB8 544:552 JLINK_GetBPInfo(BPHandle = 1)  returns 0x00 (0001ms, 2838ms total)
T1FB8 544:553 JLINK_ClrBPEx(BPHandle = 0x00000001)  returns 0x00 (0000ms, 2838ms total)
T1FB8 544:553 JLINK_ReadMemU32(0x01000BA9, 0x0001 Items, ...)Mis-aligned memory read: Address: 0x01000BA9, NumBytes: 4, Alignment: 4 (Word-aligned)
  ***** Mis-aligned memory read: Address: 0x01000BA9, NumBytes: 4, Alignment: 4 (Word-aligned) -- Read from flash cache (4 bytes @ 0x01000BA9) - Data: E9 80 48 87  returns 0x01 (0000ms, 2838ms total)
T1CA8 544:557 JLINK_ReadReg(R15 (PC))  returns 0x01000BA8 (0000ms, 2838ms total)
T1CA8 544:557 JLINK_ReadReg(R13 (SP))  returns 0x20003940 (0000ms, 2838ms total)
T1CA8 544:558 JLINK_ReadMemHW(0x01000BA8, 0x0004 Bytes, ...) -- CPU_ReadMem(4 bytes @ 0x01000BA8) - Data: 2D E9 80 48  returns 0x00 (0002ms, 2840ms total)
T1FB8 544:776 JLINK_IsHalted()  returns TRUE (0000ms, 2840ms total)
T1FB8 544:976 JLINK_IsHalted()  returns TRUE (0000ms, 2840ms total)
T1FB8 545:176 JLINK_IsHalted()  returns TRUE (0001ms, 2841ms total)
T14FC 545:274 JLINK_ReadMem (0x40000000, 0x0258 Bytes, ...) -- CPU_ReadMem(600 bytes @ 0x40000000) - Data: 00 00 00 00 00 00 00 00 00 00 00 00 00 00 00 00 ...  returns 0x00 (0005ms, 2845ms total)
T14FC 545:283 JLINK_ReadMem (0x40000000, 0x0258 Bytes, ...) -- CPU_ReadMem(600 bytes @ 0x40000000) - Data: 00 00 00 00 00 00 00 00 00 00 00 00 00 00 00 00 ...  returns 0x00 (0005ms, 2850ms total)
T1CA8 545:339 JLINK_ReadMemHW(0x01000BA8, 0x0001 Bytes, ...) -- CPU_ReadMem(1 bytes @ 0x01000BA8) - Data: 2D  returns 0x00 (0001ms, 2851ms total)
T1FB8 545:377 JLINK_IsHalted()  returns TRUE (0000ms, 2851ms total)
T1FB8 545:577 JLINK_IsHalted()  returns TRUE (0000ms, 2851ms total)
T1FB8 545:777 JLINK_IsHalted()  returns TRUE (0001ms, 2852ms total)
T1FB8 545:978 JLINK_IsHalted()  returns TRUE (0000ms, 2851ms total)
T1FB8 546:178 JLINK_IsHalted()  returns TRUE (0000ms, 2851ms total)
T1FB8 546:378 JLINK_IsHalted()  returns TRUE (0001ms, 2852ms total)
T1FB8 546:579 JLINK_IsHalted()  returns TRUE (0000ms, 2851ms total)
T1FB8 546:779 JLINK_IsHalted()  returns TRUE (0000ms, 2851ms total)
T1FB8 546:979 JLINK_IsHalted()  returns TRUE (0002ms, 2853ms total)
T1FB8 547:181 JLINK_IsHalted()  returns TRUE (0000ms, 2851ms total)
T1FB8 547:381 JLINK_IsHalted()  returns TRUE (0000ms, 2851ms total)
T1FB8 547:581 JLINK_IsHalted()  returns TRUE (0002ms, 2853ms total)
T1FB8 547:783 JLINK_IsHalted()  returns TRUE (0000ms, 2851ms total)
T1FB8 547:983 JLINK_IsHalted()  returns TRUE (0000ms, 2851ms total)
T1FB8 548:183 JLINK_IsHalted()  returns FALSE (0002ms, 2853ms total)
T1FB8 548:426 JLINK_IsHalted()  returns FALSE (0002ms, 2853ms total)
T1FB8 548:628 JLINK_IsHalted()
  ***** Internal Error: CPU_REG_Set(): Register 0 is already marked as valid.  returns TRUE (4099ms, 6950ms total)
T1FB8 552:727 JLINK_GetMOEs(...)  returns 0x01 (0000ms, 2851ms total)
T1FB8 552:737 JLINK_ReadReg(R15 (PC))  returns 0x01000BA8 (0004ms, 2855ms total)
T1FB8 552:742 JLINK_ReadMemU32(0x01000BA9, 0x0001 Items, ...)Mis-aligned memory read: Address: 0x01000BA9, NumBytes: 4, Alignment: 4 (Word-aligned)
  ***** Mis-aligned memory read: Address: 0x01000BA9, NumBytes: 4, Alignment: 4 (Word-aligned) -- Read from flash cache (4 bytes @ 0x01000BA9) - Data: E9 80 48 87  returns 0x01 (0000ms, 2855ms total)
T1CA8 552:746 JLINK_ReadReg(R15 (PC))  returns 0x01000BA8 (0000ms, 2855ms total)
T1CA8 552:746 JLINK_ReadReg(R13 (SP))  returns 0x20003940 (0000ms, 2855ms total)
T1CA8 552:747 JLINK_ReadMemHW(0x01000BA8, 0x0004 Bytes, ...) -- CPU_ReadMem(4 bytes @ 0x01000BA8) - Data: 2D E9 80 48  returns 0x00 (0001ms, 2856ms total)
T14FC 552:870 JLINK_ReadMem (0x40000000, 0x0258 Bytes, ...) -- CPU_ReadMem(600 bytes @ 0x40000000) - Data: 00 00 00 00 00 00 00 00 00 00 00 00 00 00 00 00 ...  returns 0x00 (0005ms, 2861ms total)
T14FC 552:879 JLINK_ReadMem (0x40000000, 0x0258 Bytes, ...) -- CPU_ReadMem(600 bytes @ 0x40000000) - Data: 00 00 00 00 00 00 00 00 00 00 00 00 00 00 00 00 ...  returns 0x00 (0005ms, 2866ms total)
T1FB8 552:943 JLINK_IsHalted()  returns TRUE (0000ms, 2866ms total)
T1FB8 553:143 JLINK_IsHalted()  returns TRUE (0000ms, 2866ms total)
T1CA8 553:178 JLINK_ReadMemHW(0x01000BA8, 0x0001 Bytes, ...) -- CPU_ReadMem(1 bytes @ 0x01000BA8) - Data: 2D  returns 0x00 (0002ms, 2868ms total)
T1FB8 553:343 JLINK_IsHalted()  returns TRUE (0001ms, 2869ms total)
T1FB8 553:576 JLINK_IsHalted()  returns TRUE (0000ms, 2868ms total)
T1FB8 553:776 JLINK_IsHalted()  returns TRUE (0000ms, 2868ms total)
T1FB8 553:977 JLINK_IsHalted()  returns TRUE (0002ms, 2870ms total)
T1FB8 554:179 JLINK_IsHalted()  returns TRUE (0000ms, 2868ms total)
T1FB8 554:379 JLINK_IsHalted()  returns TRUE (0000ms, 2868ms total)
T1FB8 554:579 JLINK_IsHalted()  returns TRUE (0001ms, 2869ms total)
T1CA8 554:777 JLINK_ReadReg(R15 (PC))  returns 0x01000BA8 (0000ms, 2868ms total)
T1CA8 554:777 JLINK_Step() -- Read from flash cache (2 bytes @ 0x01000BA8) -- CPU_ReadMem(4 bytes @ 0xE000ED18) -- CPU_WriteMem(4 bytes @ 0xE000ED18) -- CPU_ReadMem(4 bytes @ 0xE000ED18) -- CPU_WriteMem(4 bytes @ 0xE000ED18) -- CPU_ReadMem(4 bytes @ 0xE0001004) -- Read from flash cache (2 bytes @ 0x01000BAA) -- Not simulated -- CPU_WriteMem(4 bytes @ 0xE0001000) -- CPU_WriteMem(4 bytes @ 0xE0001020) -- CPU_WriteMem(4 bytes @ 0xE0001030) -- CPU_WriteMem(4 bytes @ 0xE0001040)
 -- CPU_WriteMem(4 bytes @ 0xE0001050) -- CPU_WriteMem(4 bytes @ 0xE0001024) -- CPU_WriteMem(4 bytes @ 0xE0001034) -- CPU_WriteMem(4 bytes @ 0xE0001044) -- CPU_WriteMem(4 bytes @ 0xE0001054) -- CPU_WriteMem(4 bytes @ 0xE0001028) -- CPU_WriteMem(4 bytes @ 0xE0001038) -- CPU_WriteMem(4 bytes @ 0xE0001048) -- CPU_WriteMem(4 bytes @ 0xE0001058) -- CPU_WriteMem(4 bytes @ 0xE0002008)  returns 0x00 (0025ms, 2893ms total)
T1FB8 554:802 JLINK_IsHalted()  returns TRUE (0000ms, 2893ms total)
T1FB8 554:804 JLINK_GetMOEs(...) -- CPU_ReadMem(4 bytes @ 0xE000ED30) -- CPU_WriteMem(4 bytes @ 0xE000ED30)  returns 0x01 (0002ms, 2895ms total)
T1FB8 554:806 JLINK_ReadReg(R15 (PC))  returns 0x01000BAC (0000ms, 2895ms total)
T1FB8 554:806 JLINK_ReadMemU32(0x01000BAD, 0x0001 Items, ...)Mis-aligned memory read: Address: 0x01000BAD, NumBytes: 4, Alignment: 4 (Word-aligned)
  ***** Mis-aligned memory read: Address: 0x01000BAD, NumBytes: 4, Alignment: 4 (Word-aligned) -- Read from flash cache (4 bytes @ 0x01000BAD) - Data: B0 67 4B 98  returns 0x01 (0000ms, 2895ms total)
T1CA8 554:812 JLINK_ReadReg(R15 (PC))  returns 0x01000BAC (0000ms, 2895ms total)
T1CA8 554:812 JLINK_ReadReg(R13 (SP))  returns 0x20003934 (0000ms, 2895ms total)
T1CA8 554:812 JLINK_ReadMemHW(0x01000BAC, 0x0004 Bytes, ...) -- CPU_ReadMem(4 bytes @ 0x01000BAC) - Data: 87 B0 67 4B  returns 0x00 (0001ms, 2896ms total)
T1CA8 554:814 JLINK_ReadReg(R15 (PC))  returns 0x01000BAC (0000ms, 2896ms total)
T1CA8 554:814 JLINK_Step() -- Read from flash cache (2 bytes @ 0x01000BAC) -- CPU_ReadMem(4 bytes @ 0xE0001004) -- Simulated  returns 0x00 (0001ms, 2897ms total)
T1FB8 554:815 JLINK_IsHalted()  returns TRUE (0000ms, 2897ms total)
T1FB8 554:815 JLINK_GetMOEs(...)  returns 0x01 (0000ms, 2897ms total)
T1FB8 554:815 JLINK_ReadReg(R15 (PC))  returns 0x01000BAE (0000ms, 2897ms total)
T1FB8 554:815 JLINK_ReadMemU32(0x01000BAF, 0x0001 Items, ...)Mis-aligned memory read: Address: 0x01000BAF, NumBytes: 4, Alignment: 4 (Word-aligned)
  ***** Mis-aligned memory read: Address: 0x01000BAF, NumBytes: 4, Alignment: 4 (Word-aligned) -- Read from flash cache (4 bytes @ 0x01000BAF) - Data: 4B 98 47 67  returns 0x01 (0001ms, 2898ms total)
T1CA8 554:825 JLINK_ReadReg(R15 (PC))  returns 0x01000BAE (0000ms, 2898ms total)
T1CA8 554:825 JLINK_ReadReg(R13 (SP))  returns 0x20003918 (0000ms, 2898ms total)
T1CA8 554:825 JLINK_ReadMemHW(0x01000BAE, 0x0004 Bytes, ...) -- CPU_ReadMem(4 bytes @ 0x01000BAE) - Data: 67 4B 98 47  returns 0x00 (0002ms, 2900ms total)
T14FC 554:874 JLINK_ReadMem (0x40000000, 0x0258 Bytes, ...) -- CPU_ReadMem(600 bytes @ 0x40000000) - Data: 00 00 00 00 00 00 00 00 00 00 00 00 00 00 00 00 ...  returns 0x00 (0006ms, 2906ms total)
T14FC 554:885 JLINK_ReadMem (0x40000000, 0x0258 Bytes, ...) -- CPU_ReadMem(600 bytes @ 0x40000000) - Data: 00 00 00 00 00 00 00 00 00 00 00 00 00 00 00 00 ...  returns 0x00 (0005ms, 2911ms total)
T1FB8 555:027 JLINK_IsHalted()  returns TRUE (0000ms, 2911ms total)
T1CA8 555:184 JLINK_ReadMemHW(0x01000144, 0x0001 Bytes, ...) -- CPU_ReadMem(1 bytes @ 0x01000144) - Data: 10  returns 0x00 (0001ms, 2912ms total)
T1FB8 555:227 JLINK_IsHalted()  returns TRUE (0002ms, 2914ms total)
T1FB8 555:429 JLINK_IsHalted()  returns TRUE (0000ms, 2912ms total)
T1FB8 555:629 JLINK_IsHalted()  returns TRUE (0000ms, 2912ms total)
T1FB8 555:829 JLINK_IsHalted()  returns TRUE (0001ms, 2913ms total)
T1CA8 555:986 JLINK_ReadReg(R15 (PC))  returns 0x01000BAE (0000ms, 2912ms total)
T1CA8 555:986 JLINK_Step() -- Read from flash cache (2 bytes @ 0x01000BAE) -- Read from flash cache (4 bytes @ 0x01000D4C) -- Simulated  returns 0x00 (0000ms, 2912ms total)
T1FB8 555:986 JLINK_IsHalted()  returns TRUE (0000ms, 2912ms total)
T1FB8 555:987 JLINK_GetMOEs(...)  returns 0x01 (0000ms, 2912ms total)
T1FB8 555:987 JLINK_ReadReg(R15 (PC))  returns 0x01000BB0 (0000ms, 2912ms total)
T1FB8 555:987 JLINK_ReadMemU32(0x01000BB1, 0x0001 Items, ...)Mis-aligned memory read: Address: 0x01000BB1, NumBytes: 4, Alignment: 4 (Word-aligned)
  ***** Mis-aligned memory read: Address: 0x01000BB1, NumBytes: 4, Alignment: 4 (Word-aligned) -- Read from flash cache (4 bytes @ 0x01000BB1) - Data: 47 67 4B 98  returns 0x01 (0000ms, 2912ms total)
T1CA8 555:996 JLINK_ReadReg(R15 (PC))  returns 0x01000BB0 (0000ms, 2912ms total)
T1CA8 555:996 JLINK_ReadReg(R13 (SP))  returns 0x20003918 (0000ms, 2912ms total)
T1CA8 555:997 JLINK_ReadMemHW(0x01000BB0, 0x0004 Bytes, ...) -- CPU_ReadMem(4 bytes @ 0x01000BB0) - Data: 98 47 67 4B  returns 0x00 (0001ms, 2913ms total)
T1CA8 555:999 JLINK_ReadReg(R15 (PC))  returns 0x01000BB0 (0000ms, 2913ms total)
T1CA8 555:999 JLINK_Step() -- Read from flash cache (2 bytes @ 0x01000BB0) -- Simulated  returns 0x00 (0000ms, 2913ms total)
T1FB8 555:999 JLINK_IsHalted()  returns TRUE (0000ms, 2913ms total)
T1FB8 555:999 JLINK_GetMOEs(...)  returns 0x01 (0000ms, 2913ms total)
T1FB8 555:999 JLINK_ReadReg(R15 (PC))  returns 0x01000144 (0000ms, 2913ms total)
T1FB8 555:999 JLINK_ReadMemU32(0x01000145, 0x0001 Items, ...)Mis-aligned memory read: Address: 0x01000145, NumBytes: 4, Alignment: 4 (Word-aligned)
  ***** Mis-aligned memory read: Address: 0x01000145, NumBytes: 4, Alignment: 4 (Word-aligned) -- Read from flash cache (4 bytes @ 0x01000145) - Data: B5 1E 48 1E  returns 0x01 (0000ms, 2913ms total)
T1CA8 556:009 JLINK_ReadReg(R15 (PC))  returns 0x01000144 (0000ms, 2913ms total)
T1CA8 556:009 JLINK_ReadReg(R13 (SP))  returns 0x20003918 (0000ms, 2913ms total)
T1CA8 556:009 JLINK_ReadMemHW(0x01000144, 0x0004 Bytes, ...) -- CPU_ReadMem(4 bytes @ 0x01000144) - Data: 10 B5 1E 48  returns 0x00 (0001ms, 2914ms total)
T1CA8 556:011 JLINK_ReadReg(R0)  returns 0x01003FE4 (0000ms, 2914ms total)
T1CA8 556:011 JLINK_ReadReg(R1)  returns 0x00000000 (0000ms, 2914ms total)
T1CA8 556:011 JLINK_ReadReg(R2)  returns 0x01000000 (0000ms, 2914ms total)
T1CA8 556:011 JLINK_ReadReg(R3)  returns 0x01000145 (0000ms, 2914ms total)
T1CA8 556:011 JLINK_ReadReg(R4)  returns 0x00000000 (0000ms, 2914ms total)
T1CA8 556:011 JLINK_ReadReg(R5)  returns 0x00000000 (0000ms, 2914ms total)
T1CA8 556:011 JLINK_ReadReg(R6)  returns 0x00000000 (0000ms, 2914ms total)
T1CA8 556:011 JLINK_ReadReg(R7)  returns 0x00000000 (0000ms, 2914ms total)
T1CA8 556:011 JLINK_ReadReg(R8)  returns 0x00000000 (0000ms, 2914ms total)
T1CA8 556:011 JLINK_ReadReg(R9)  returns 0x00000000 (0000ms, 2914ms total)
T1CA8 556:011 JLINK_ReadReg(R10)  returns 0x00000000 (0000ms, 2914ms total)
T1CA8 556:011 JLINK_ReadReg(R11)  returns 0x00000000 (0001ms, 2915ms total)
T1CA8 556:012 JLINK_ReadReg(R12)  returns 0x00000000 (0000ms, 2915ms total)
T1CA8 556:012 JLINK_ReadReg(R13 (SP))  returns 0x20003918 (0000ms, 2915ms total)
T1CA8 556:012 JLINK_ReadReg(R14)  returns 0x01000BB3 (0000ms, 2915ms total)
T1CA8 556:012 JLINK_ReadReg(R15 (PC))  returns 0x01000144 (0000ms, 2915ms total)
T1CA8 556:012 JLINK_ReadReg(XPSR)  returns 0x61000000 (0000ms, 2915ms total)
T1CA8 556:012 JLINK_ReadReg(MSP)  returns 0x20003918 (0000ms, 2915ms total)
T1CA8 556:012 JLINK_ReadReg(PSP)  returns 0x00000000 (0000ms, 2915ms total)
T1CA8 556:012 JLINK_ReadReg(PRIMASK)  returns 0x00000000 (0000ms, 2915ms total)
T1CA8 556:012 JLINK_ReadReg(BASEPRI)  returns 0x00000000 (0000ms, 2915ms total)
T1CA8 556:012 JLINK_ReadReg(FAULTMASK)  returns 0x00000000 (0000ms, 2915ms total)
T1CA8 556:012 JLINK_ReadReg(CONTROL)  returns 0x00000000 (0000ms, 2915ms total)
T1CA8 556:013 JLINK_ReadMemHW(0x01000BB2, 0x0004 Bytes, ...) -- CPU_ReadMem(4 bytes @ 0x01000BB2) - Data: 67 4B 98 47  returns 0x00 (0001ms, 2916ms total)
T1CA8 556:015 JLINK_ReadReg(R15 (PC))  returns 0x01000144 (0000ms, 2916ms total)
T1CA8 556:015 JLINK_SetBPEx(Addr = 0x01000BB2, Type = 0xFFFFFF02)  returns 0x00000002 (0000ms, 2916ms total)
T1CA8 556:015 JLINK_GetBPInfo(BPHandle = 2)  returns 0x00 (0000ms, 2916ms total)
T1CA8 556:016 JLINK_Go() -- CPU_ReadMem(4 bytes @ 0xE0001000) -- CPU_WriteMem(4 bytes @ 0xE0002008) -- CPU_WriteMem(4 bytes @ 0xE0001004) (0005ms, 2921ms total)
T1FB8 556:021 JLINK_IsHalted()  returns FALSE (0001ms, 2922ms total)
T1FB8 556:042 JLINK_IsHalted()  returns TRUE (0004ms, 2925ms total)
T1FB8 556:046 JLINK_GetMOEs(...) -- CPU_ReadMem(4 bytes @ 0xE000ED30) -- CPU_WriteMem(4 bytes @ 0xE000ED30)  returns 0x01 (0002ms, 2923ms total)
T1FB8 556:048 JLINK_ReadReg(R15 (PC))  returns 0x01000BB2 (0000ms, 2923ms total)
T1FB8 556:048 JLINK_GetBPInfo(BPHandle = 2)  returns 0x00 (0000ms, 2923ms total)
T1FB8 556:048 JLINK_ClrBPEx(BPHandle = 0x00000002)  returns 0x00 (0000ms, 2923ms total)
T1FB8 556:048 JLINK_ReadMemU32(0x01000BB3, 0x0001 Items, ...)Mis-aligned memory read: Address: 0x01000BB3, NumBytes: 4, Alignment: 4 (Word-aligned)
  ***** Mis-aligned memory read: Address: 0x01000BB3, NumBytes: 4, Alignment: 4 (Word-aligned) -- Read from flash cache (4 bytes @ 0x01000BB3) - Data: 4B 98 47 08  returns 0x01 (0000ms, 2923ms total)
T1CA8 556:051 JLINK_ReadReg(R15 (PC))  returns 0x01000BB2 (0000ms, 2923ms total)
T1CA8 556:051 JLINK_ReadReg(R13 (SP))  returns 0x20003918 (0000ms, 2923ms total)
T1CA8 556:051 JLINK_ReadMemHW(0x01000BB2, 0x0004 Bytes, ...) -- CPU_ReadMem(4 bytes @ 0x01000BB2) - Data: 67 4B 98 47  returns 0x00 (0002ms, 2925ms total)
T14FC 556:110 JLINK_ReadMem (0x40000000, 0x0258 Bytes, ...) -- CPU_ReadMem(600 bytes @ 0x40000000) - Data: 00 00 00 00 00 00 00 00 00 00 00 00 00 00 00 00 ...  returns 0x00 (0004ms, 2929ms total)
T14FC 556:119 JLINK_ReadMem (0x40000000, 0x0258 Bytes, ...) -- CPU_ReadMem(600 bytes @ 0x40000000) - Data: 00 00 00 00 00 00 00 00 00 00 00 00 00 00 00 00 ...  returns 0x00 (0003ms, 2932ms total)
T1FB8 556:277 JLINK_IsHalted()  returns TRUE (0000ms, 2932ms total)
T1CA8 556:418 JLINK_ReadMemHW(0x01000144, 0x0001 Bytes, ...) -- CPU_ReadMem(1 bytes @ 0x01000144) - Data: 10  returns 0x00 (0002ms, 2934ms total)
T1FB8 556:477 JLINK_IsHalted()  returns TRUE (0000ms, 2934ms total)
T1CA8 556:494 JLINK_ReadMemHW(0x01000280, 0x0001 Bytes, ...) -- CPU_ReadMem(1 bytes @ 0x01000280) - Data: 10  returns 0x00 (0001ms, 2935ms total)
T1CA8 556:607 JLINK_ReadReg(R15 (PC))  returns 0x01000BB2 (0001ms, 2936ms total)
T1CA8 556:609 JLINK_Step() -- Read from flash cache (2 bytes @ 0x01000BB2) -- CPU_ReadMem(4 bytes @ 0xE0001004) -- Read from flash cache (4 bytes @ 0x01000D50) -- Simulated  returns 0x00 (0001ms, 2937ms total)
T1FB8 556:610 JLINK_IsHalted()  returns TRUE (0000ms, 2937ms total)
T1FB8 556:611 JLINK_GetMOEs(...)  returns 0x01 (0000ms, 2937ms total)
T1FB8 556:611 JLINK_ReadReg(R15 (PC))  returns 0x01000BB4 (0000ms, 2937ms total)
T1FB8 556:611 JLINK_ReadMemU32(0x01000BB5, 0x0001 Items, ...)Mis-aligned memory read: Address: 0x01000BB5, NumBytes: 4, Alignment: 4 (Word-aligned)
  ***** Mis-aligned memory read: Address: 0x01000BB5, NumBytes: 4, Alignment: 4 (Word-aligned) -- Read from flash cache (4 bytes @ 0x01000BB5) - Data: 47 08 20 66  returns 0x01 (0000ms, 2937ms total)
T1CA8 556:620 JLINK_ReadReg(R15 (PC))  returns 0x01000BB4 (0000ms, 2937ms total)
T1CA8 556:620 JLINK_ReadReg(R13 (SP))  returns 0x20003918 (0000ms, 2937ms total)
T1CA8 556:621 JLINK_ReadMemHW(0x01000BB4, 0x0004 Bytes, ...) -- CPU_ReadMem(4 bytes @ 0x01000BB4) - Data: 98 47 08 20  returns 0x00 (0001ms, 2938ms total)
T1CA8 556:623 JLINK_ReadReg(R15 (PC))  returns 0x01000BB4 (0000ms, 2938ms total)
T1CA8 556:623 JLINK_Step() -- Read from flash cache (2 bytes @ 0x01000BB4) -- Simulated  returns 0x00 (0000ms, 2938ms total)
T1FB8 556:623 JLINK_IsHalted()  returns TRUE (0000ms, 2938ms total)
T1FB8 556:624 JLINK_GetMOEs(...)  returns 0x01 (0000ms, 2938ms total)
T1FB8 556:624 JLINK_ReadReg(R15 (PC))  returns 0x01000280 (0000ms, 2938ms total)
T1FB8 556:624 JLINK_ReadMemU32(0x01000281, 0x0001 Items, ...)Mis-aligned memory read: Address: 0x01000281, NumBytes: 4, Alignment: 4 (Word-aligned)
  ***** Mis-aligned memory read: Address: 0x01000281, NumBytes: 4, Alignment: 4 (Word-aligned) -- Read from flash cache (4 bytes @ 0x01000281) - Data: B5 4F F4 00  returns 0x01 (0000ms, 2938ms total)
T1CA8 556:633 JLINK_ReadReg(R15 (PC))  returns 0x01000280 (0000ms, 2938ms total)
T1CA8 556:633 JLINK_ReadReg(R13 (SP))  returns 0x20003918 (0000ms, 2938ms total)
T1CA8 556:634 JLINK_ReadMemHW(0x01000280, 0x0004 Bytes, ...) -- CPU_ReadMem(4 bytes @ 0x01000280) - Data: 10 B5 4F F4  returns 0x00 (0001ms, 2939ms total)
T1CA8 556:636 JLINK_ReadReg(R0)  returns 0x00000000 (0000ms, 2939ms total)
T1CA8 556:636 JLINK_ReadReg(R1)  returns 0x400E1400 (0000ms, 2939ms total)
T1CA8 556:636 JLINK_ReadReg(R2)  returns 0x400E0400 (0000ms, 2939ms total)
T1CA8 556:636 JLINK_ReadReg(R3)  returns 0x01000281 (0000ms, 2939ms total)
T1CA8 556:636 JLINK_ReadReg(R4)  returns 0x00000000 (0000ms, 2939ms total)
T1CA8 556:636 JLINK_ReadReg(R5)  returns 0x00000000 (0000ms, 2939ms total)
T1CA8 556:636 JLINK_ReadReg(R6)  returns 0x00000000 (0000ms, 2939ms total)
T1CA8 556:636 JLINK_ReadReg(R7)  returns 0x00000000 (0000ms, 2939ms total)
T1CA8 556:637 JLINK_ReadReg(R8)  returns 0x00000000 (0000ms, 2940ms total)
T1CA8 556:637 JLINK_ReadReg(R9)  returns 0x00000000 (0000ms, 2940ms total)
T1CA8 556:637 JLINK_ReadReg(R10)  returns 0x00000000 (0000ms, 2940ms total)
T1CA8 556:637 JLINK_ReadReg(R11)  returns 0x00000000 (0000ms, 2940ms total)
T1CA8 556:637 JLINK_ReadReg(R12)  returns 0x00000000 (0000ms, 2940ms total)
T1CA8 556:637 JLINK_ReadReg(R13 (SP))  returns 0x20003918 (0000ms, 2940ms total)
T1CA8 556:637 JLINK_ReadReg(R14)  returns 0x01000BB7 (0000ms, 2940ms total)
T1CA8 556:637 JLINK_ReadReg(R15 (PC))  returns 0x01000280 (0000ms, 2940ms total)
T1CA8 556:637 JLINK_ReadReg(XPSR)  returns 0x41000000 (0000ms, 2940ms total)
T1CA8 556:637 JLINK_ReadReg(MSP)  returns 0x20003918 (0000ms, 2940ms total)
T1CA8 556:637 JLINK_ReadReg(PSP)  returns 0x00000000 (0000ms, 2940ms total)
T1CA8 556:637 JLINK_ReadReg(PRIMASK)  returns 0x00000000 (0001ms, 2941ms total)
T1CA8 556:638 JLINK_ReadReg(BASEPRI)  returns 0x00000000 (0000ms, 2941ms total)
